mbpoll 1.0-0 - ModBus(R) Master Simulator
Copyright (c) 2015-2023 Pascal JEAN, https://github.com/epsilonrt/mbpoll
This program comes with ABSOLUTELY NO WARRANTY.
This is free software, and you are welcome to redistribute it
under certain conditions; type 'mbpoll -w' for details.

Protocol configuration: ModBus TCP
Slave configuration...: address = [1]
                        start reference = 70, count = 110
Communication.........: 192.168.178.72, port 502, t/o 5.00 s, poll rate 1000 ms
Data type.............: 16-bit register, output (holding) register table

-- Polling slave 1...
[70]: 	4
[71]: 	16
[72]: 	3
[73]: 	3
[74]: 	3
[75]: 	3
[76]: 	3
[77]: 	16
[78]: 	3
[79]: 	3
[80]: 	3
[81]: 	4382
[82]: 	0
[83]: 	17486
[84]: 	25185
[85]: 	12594
[86]: 	13617
[87]: 	12337
[88]: 	12598
[89]: 	305
[90]: 	0
[91]: 	0
[92]: 	5020
[93]: 	50
[94]: 	4103
[95]: 	4262
[96]: 	3864
[97]: 	3705
[98]: 	20
[99]: 	5
[100]: 	4183
[101]: 	3984
[102]: 	9875
[103]: 	9875
[104]: 	9736
[105]: 	10112
[106]: 	10112
[107]: 	10070
[108]: 	3
[109]: 	0
[110]: 	484
[111]: 	255
[112]: 	20000
[113]: 	255
[114]: 	20000
[115]: 	255
[116]: 	20000
[117]: 	255
[118]: 	20000
[119]: 	1800
[120]: 	6
[121]: 	3841
[122]: 	120
[123]: 	0
[124]: 	600
[125]: 	0
[126]: 	20566
[127]: 	8224
[128]: 	8259
[129]: 	12336
[130]: 	12320
[131]: 	8224
[132]: 	8224
[133]: 	8192
[134]: 	0
[135]: 	0
[136]: 	0
[137]: 	0
[138]: 	0
[139]: 	0
[140]: 	0
[141]: 	0
[142]: 	0
[143]: 	4980
[144]: 	5020
[145]: 	600
[146]: 	1
[147]: 	3187
[148]: 	4581
[149]: 	4382
[150]: 	4382
[151]: 	3
[152]: 	4980
[153]: 	0
[154]: 	4910
[155]: 	0
[156]: 	5150
[157]: 	0
[158]: 	0
[159]: 	0
[160]: 	0
[161]: 	0
[162]: 	40
[163]: 	0
[164]: 	0
[165]: 	0
[166]: 	0
[167]: 	0
[168]: 	0
[169]: 	0
[170]: 	0
[171]: 	0
[172]: 	4382
[173]: 	0
[174]: 	0
[175]: 	0
[176]: 	0
[177]: 	50
[178]: 	5010
[179]: 	0

